Circuit: * C:\Users\Mr_Dusza\Documents\GitHub\PV_DC_driver\simulations\PWM_MPPT\Draft1.asc

Instance "m1": Length shorter than recommended for a level 1 MOSFET.
Direct Newton iteration for .op point succeeded.
Semiconductor Device Operating Points:
                        --- MOSFET Transistors ---
Name:          m1
Model:        nmos
Id:          1.06e-03
Vgs:         1.39e+00
Vds:         5.27e-01
Vbs:         0.00e+00
Vth:         4.00e-01
Vdsat:       9.88e-01
Gm:          1.46e-03
Gds:         1.28e-03
Gmb:         0.00e+00
Cbd:         0.00e+00
Cbs:         0.00e+00
Cgsov:       0.00e+00
Cgdov:       0.00e+00
Cgbov:       0.00e+00
Cgs:         0.00e+00
Cgd:         0.00e+00
Cgb:         0.00e+00



Date: Mon Dec 05 20:49:01 2022
Total elapsed time: 0.028 seconds.

tnom = 27
temp = 27
method = trap
totiter = 6
traniter = 0
tranpoints = 0
accept = 0
rejected = 0
matrix size = 6
fillins = 0
solver = Normal
Matrix Compiler1: 200 bytes object code size
Matrix Compiler2: 402 bytes object code size
