Circuit: * C:\Users\Mr_Dusza\Documents\GitHub\PV_DC_driver\simulations\PWM_MPPT\Draft2.asc

Direct Newton iteration for .op point succeeded.
Semiconductor Device Operating Points:
                        --- Bipolar Transistors ---
Name:       q2          q1
Model:      pnp        npn1
Ib:       1.04e-11    3.78e-05
Ic:      -9.62e-12    3.78e-03
Vbe:      8.09e-01    8.09e-01
Vbc:      9.62e+00   -3.78e-01
Vce:     -8.81e+00    1.19e+00
BetaDC:  -9.22e-01    1.00e+02
Gm:       1.02e-28    1.46e-01
Rpi:      1.00e+12    6.85e+02
Rx:       0.00e+00    0.00e+00
Ro:       0.00e+00    5.66e+20
Cbe:      0.00e+00    0.00e+00
Cbc:      0.00e+00    0.00e+00
Cjs:      0.00e+00    0.00e+00
BetaAC:   1.02e-16    1.00e+02
Cbx:      0.00e+00    0.00e+00
Ft:       0.00e+00    0.00e+00



Date: Sat Dec 03 12:35:50 2022
Total elapsed time: 0.027 seconds.

tnom = 27
temp = 27
method = trap
totiter = 9
traniter = 0
tranpoints = 0
accept = 0
rejected = 0
matrix size = 8
fillins = 0
solver = Normal
Matrix Compiler1: 282 bytes object code size
Matrix Compiler2: 562 bytes object code size
