
**** 05/03/22 16:17:47 ******* PSpice Lite (March 2016) ******* ID# 10813 ****

 PWM RC filter 2


 ****     CIRCUIT DESCRIPTION


******************************************************************************




VSUPPLY VCC 0 5V
C2 VCC 0 100n

X1 P_IN N_IN VCC 0 OUT LM324

VPWM VIN 0 PULSE 0 0.1 0 0 0 25u 50u

R3 VIN P_IN 1600
C3 P_IN 0 100n

R2 0 N_IN 410
R1 OUT N_IN 10k
C1 N_IN OUT 100n


.TRAN 0 5m 0 1u
.PROBE
.LIB "EVAL_TOS.LIB"
.END

**** 05/03/22 16:17:47 ******* PSpice Lite (March 2016) ******* ID# 10813 ****

 PWM RC filter 2


 ****     Diode MODEL PARAMETERS


******************************************************************************




               X1.dx           
          IS  800.000000E-18 
          RS    1            


**** 05/03/22 16:17:47 ******* PSpice Lite (March 2016) ******* ID# 10813 ****

 PWM RC filter 2


 ****     BJT MODEL PARAMETERS


******************************************************************************




               X1.qx           
               PNP             
       LEVEL    1            
          IS  800.000000E-18 
          BF  166.7          
          NF    1            
          BR    1            
          NR    1            
         ISS    0            
          RE    0            
          RC    0            
         CJE    0            
         VJE     .75         
         CJC    0            
         VJC     .75         
         MJC     .33         
        XCJC    1            
         CJS    0            
         VJS     .75         
          KF    0            
          AF    1            
          CN    2.2          
           D     .52         


**** 05/03/22 16:17:47 ******* PSpice Lite (March 2016) ******* ID# 10813 ****

 PWM RC filter 2


 ****     INITIAL TRANSIENT SOLUTION       TEMPERATURE =   27.000 DEG C


******************************************************************************



 NODE   VOLTAGE     NODE   VOLTAGE     NODE   VOLTAGE     NODE   VOLTAGE


(  OUT)     .1149  (  VCC)    5.0000  (  VIN)    0.0000  ( N_IN)     .0045      

( P_IN) 76.73E-06  ( X1.6)     .0734  ( X1.7)     .1154  ( X1.8)     .1154      

( X1.9)    0.0000  (X1.10)     .6104  (X1.11)     .0379  (X1.12)     .0424      

(X1.13)     .5972  (X1.14)     .5956  (X1.53)    3.5000  (X1.54)     .6500      

(X1.90)     .0103  (X1.91)   40.0000  (X1.92)  -40.0000  (X1.99)    2.5000  




    VOLTAGE SOURCE CURRENTS
    NAME         CURRENT

    VSUPPLY     -5.656E-04
    VPWM         4.795E-08
    X1.vb        7.336E-07
    X1.vc        3.386E-12
    X1.ve       -7.736E-07
    X1.vlim      1.026E-05
    X1.vlp      -3.999E-11
    X1.vln      -4.001E-11

    TOTAL POWER DISSIPATION   2.83E-03  WATTS



          JOB CONCLUDED

**** 05/03/22 16:17:47 ******* PSpice Lite (March 2016) ******* ID# 10813 ****

 PWM RC filter 2


 ****     JOB STATISTICS SUMMARY


******************************************************************************



  Total job time (using Solver 1)   =         .31
